Circuit: * C:\Users\mgenovesi\Desktop\Dase\LT SPice primer trabajo\Draft1.asc

Warning: Multiple definitions of model "2scr375p" Type: BJT
Warning: Multiple definitions of model "bc857b" Type: BJT
Warning: Multiple definitions of model "bc847c" Type: BJT
Warning: Multiple definitions of model "bc847b" Type: BJT
.step r2=220000
Direct Newton iteration for .op point succeeded.
Semiconductor Device Operating Points:
                        --- Bipolar Transistors ---
Name:      q§250
Model:    2n2222
Ib:       5.53e-05
Ic:       3.70e-03
Vbe:      6.92e-01
Vbc:      5.97e-01
Vce:      9.47e-02
BetaDC:   6.70e+01
Gm:       1.43e-01
Rpi:      1.32e+03
Rx:       1.00e+01
Ro:       2.41e+02
Cbe:      9.89e-11
Cbc:      4.31e-10
Cjs:      0.00e+00
BetaAC:   1.88e+02
Cbx:      0.00e+00
Ft:       4.29e+07


.step r2=120000
.step r2=100000
.step r2=47000

Date: Wed Mar 22 10:43:41 2023
Total elapsed time: 0.490 seconds.

tnom = 27
temp = 27
method = trap
totiter = 10
traniter = 0
tranpoints = 0
accept = 0
rejected = 0
matrix size = 8
fillins = 0
solver = Normal
Avg thread counts: 4.0/0.0/4.0/4.0
Matrix Compiler1: 496 bytes object code size
Matrix Compiler2: 642 bytes object code size
